
**** 04/06/22 18:10:48 ******* PSpice 17.4.0 (Nov 2018) ******* ID# 0 ********

 ** Profile: "SCHEMATIC1-MCU_Power_Button"  [ c:\users\student\orcad_pcb\mcu_powerbutton\mcu_power_button-pspicefiles\schematic1\mcu_


 ****     CIRCUIT DESCRIPTION


******************************************************************************




** Creating circuit file "MCU_Power_Button.cir" 
** WARNING: THIS AUTOMATICALLY GENERATED FILE MAY BE OVERWRITTEN BY SUBSEQUENT SIMULATIONS

*Libraries: 
* Profile Libraries :
* Local Libraries :
.LIB "../../../mcu_power_button-pspicefiles/mcu_power_button.lib" 
* From [PSPICE NETLIST] section of C:\Users\student\AppData\Roaming\SPB_Data\cdssetup\OrCAD_PSpice\17.4.0\PSpice.ini file:
.lib "nom.lib" 

*Analysis directives: 
.TRAN  0 45 0 1e-03 
.OPTIONS ADVCONV
.PROBE64 V(alias(*)) I(alias(*)) W(alias(*)) D(alias(*)) NOISE(alias(*)) 
.INC "..\SCHEMATIC1.net" 



**** INCLUDING SCHEMATIC1.net ****
* source MCU_POWER_BUTTON
V_V1         N00083 0 3.7VDC
R_R1         N00123 N00083  10k TC=0,0 
R_R2         N00130 N00083  100k TC=0,0 
C_C1         N00123 N00130  100n  TC=0,0 
C_C2         N00130 N00083  100n  TC=0,0 
C_C3         N00814 N00807  10u  TC=0,0 
R_R3         N00814 N00885  300k TC=0,0 
R_R4         N00885 N00807  100k TC=0,0 
S_U1         N00123 0 N01793 0 _U1
.MODEL      _U1 VSWITCH Roff=100000000 Ron=0.01 VH=0 VT=2VDC TD=0
V_V2         N01793 0  
+PULSE 0 3.7 5 0 0 0.5 20
V_V3         N07567 0  
+PULSE 3.7 0 5.25 0 0 22 40
S_U2         N00885 0 N07567 0 _U2
.MODEL      _U2 VSWITCH Roff=1000000000 Ron=0.01 VH=0 VT=2VDC TD=0
M_M1         N00807 N00130 N00083 N00083 Mbreakp           
M_M2         N00130 N00814 0 0 MbreakN           
X_D1         N00885 N00123 awb1n4001 PARAMS:                

**** RESUMING MCU_Power_Button.cir ****
.END

**** 04/06/22 18:10:48 ******* PSpice 17.4.0 (Nov 2018) ******* ID# 0 ********

 ** Profile: "SCHEMATIC1-MCU_Power_Button"  [ c:\users\student\orcad_pcb\mcu_powerbutton\mcu_power_button-pspicefiles\schematic1\mcu_


 ****     Diode MODEL PARAMETERS


******************************************************************************




               X_D1.model22    
          IS  149.000000E-09 
           N    2.21         
          BV  100            
         IBV    1            
          RS     .03         
          TT    1.440000E-06 
         CJO   23.130000E-12 
          VJ     .5          
           M     .421        
          EG    1.11         


**** 04/06/22 18:10:48 ******* PSpice 17.4.0 (Nov 2018) ******* ID# 0 ********

 ** Profile: "SCHEMATIC1-MCU_Power_Button"  [ c:\users\student\orcad_pcb\mcu_powerbutton\mcu_power_button-pspicefiles\schematic1\mcu_


 ****     MOSFET MODEL PARAMETERS


******************************************************************************




               Mbreakp         MbreakN         
               PMOS            NMOS            
       LEVEL    1               1            
           L  100.000000E-06  100.000000E-06 
           W  100.000000E-06  100.000000E-06 
         VTO    0               0            
          KP   20.000000E-06   20.000000E-06 
       GAMMA    0               0            
         PHI     .6              .6          
      LAMBDA    0               0            
          IS   10.000000E-15   10.000000E-15 
          JS    0               0            
          PB     .8              .8          
        PBSW     .8              .8          
          CJ    0               0            
        CJSW    0               0            
        CGSO    0               0            
        CGDO    0               0            
        CGBO    0               0            
         TOX    0               0            
          XJ    0               0            
       UCRIT   10.000000E+03   10.000000E+03 
      DIOMOD    1               1            
         VFB    0               0            
        LETA    0               0            
        WETA    0               0            
          U0    0               0            
        TEMP    0               0            
         VDD    5               5            
       XPART    0               0            


**** 04/06/22 18:10:48 ******* PSpice 17.4.0 (Nov 2018) ******* ID# 0 ********

 ** Profile: "SCHEMATIC1-MCU_Power_Button"  [ c:\users\student\orcad_pcb\mcu_powerbutton\mcu_power_button-pspicefiles\schematic1\mcu_


 ****     Voltage Controlled Switch MODEL PARAMETERS


******************************************************************************




               _U1             _U2             
         RON     .01             .01         
        ROFF  100.000000E+06    1.000000E+09 
          VT    2               2            
          VH    0               0            
          TD    0               0            


**** 04/06/22 18:10:48 ******* PSpice 17.4.0 (Nov 2018) ******* ID# 0 ********

 ** Profile: "SCHEMATIC1-MCU_Power_Button"  [ c:\users\student\orcad_pcb\mcu_powerbutton\mcu_power_button-pspicefiles\schematic1\mcu_


 ****     INITIAL TRANSIENT SOLUTION       TEMPERATURE =   27.000 DEG C


******************************************************************************



 NODE   VOLTAGE     NODE   VOLTAGE     NODE   VOLTAGE     NODE   VOLTAGE


(N00083)    3.7000 (N00123)    3.6981 (N00130)    3.7000 (N00807) 372.5E-09     

(N00814) 1.490E-09 (N00885) 1.490E-09 (N01793)    0.0000 (N07567)    3.7000 




    VOLTAGE SOURCE CURRENTS
    NAME         CURRENT

    V_V1        -1.860E-07
    V_V2         0.000E+00
    V_V3        -3.700E-12

    TOTAL POWER DISSIPATION   6.88E-07  WATTS



          JOB CONCLUDED

**** 04/06/22 18:10:48 ******* PSpice 17.4.0 (Nov 2018) ******* ID# 0 ********

 ** Profile: "SCHEMATIC1-MCU_Power_Button"  [ c:\users\student\orcad_pcb\mcu_powerbutton\mcu_power_button-pspicefiles\schematic1\mcu_


 ****     JOB STATISTICS SUMMARY


******************************************************************************



  Total job time (using Solver 1)   =         .78
